Circuit: * C:\Users\BilgeKaan\Desktop\Bilge Kaan\2024 Spring\EE 313\Lab\Lab1\Lab1_alt.asc

Early termination of direct N-R iteration.
Direct Newton iteration failed to find .op point.  (Use ".option noopiter" to skip.)
Starting Gmin stepping
Gmin = 10
vernier = 0.5
vernier = 0.25
vernier = 0.125
vernier = 0.0625
Gmin = 8.61953
vernier = 0.03125
vernier = 0.015625
vernier = 0.0078125
vernier = 0.00390625
Gmin = 8.4539
vernier = 0.00195312
vernier = 0.000976562
vernier = 0.000488281
Gmin = 0
Gmin = 0
Gmin stepping succeeded in finding the operating point.

Semiconductor Device Operating Points:
                        --- Diodes ---
Name:    d:u2:c      d:u2:e      d:u2:lp     d:u2:ln     d:u2:p
Model:    u2:dx       u2:dx       u2:dx       u2:dx       u2:dx
Id:     -9.43e-12   -2.87e-12   -4.00e-11   -4.00e-11   -1.50e-11
Vd:     -9.43e+00   -2.87e+00   -4.00e+01   -4.00e+01   -1.50e+01
Req:     1.00e+12    1.00e+12    1.00e+12    1.00e+12    1.00e+12
CAP:     0.00e+00    0.00e+00    0.00e+00    0.00e+00    0.00e+00

Name:      d1          d2        d:u1:c      d:u1:e      d:u1:lp
Model:   1n4148      1n4148       u1:dx       u1:dx       u1:dx
Id:      1.44e-03    1.05e-03   -1.29e-11    8.07e-06   -4.00e-11
Vd:      6.11e-01    6.05e-01   -1.29e+01    6.06e-01   -4.00e+01
Req:     3.10e+01    4.19e+01    1.00e+12    3.15e+03    1.00e+12
CAP:     0.00e+00    0.00e+00    0.00e+00    0.00e+00    0.00e+00

Name:    d:u1:ln     d:u1:p            d3
Model:    u1:dx       u1:dx    l128-drd1003500000
Id:     -4.00e-11   -1.50e-11       -7.29e-15
Vd:     -4.00e+01   -1.50e+01       -5.62e-03
Req:     1.00e+12    1.00e+12        7.79e+11
CAP:     0.00e+00    0.00e+00        0.00e+00

                        --- Bipolar Transistors ---
Name:     q:u2:1      q:u2:2      q:u1:1      q:u1:2
Model:     u2:qx       u2:qx       u1:qx       u1:qx
Ib:      -2.05e-08   -2.07e-08    1.69e-11   -4.07e-08
Ic:      -5.13e-06   -5.18e-06   -1.05e-11   -1.02e-05
Vbe:     -5.94e-01   -5.94e-01    6.41e+00   -6.12e-01
Vbc:      5.70e-01    5.69e-01    1.05e+01    3.36e+00
Vce:     -1.16e+00   -1.16e+00   -4.09e+00   -3.98e+00
BetaDC:   2.50e+02    2.50e+02   -6.21e-01    2.50e+02
Gm:       2.02e-04    2.04e-04    0.00e+00    4.00e-04
Rpi:      1.24e+06    1.23e+06    1.00e+12    6.25e+05
Rx:       0.00e+00    0.00e+00    0.00e+00    0.00e+00
Ro:       3.68e+23    3.57e+23    0.00e+00    1.94e+71
Cbe:      0.00e+00    0.00e+00    0.00e+00    0.00e+00
Cbc:      0.00e+00    0.00e+00    0.00e+00    0.00e+00
Cjs:      0.00e+00    0.00e+00    0.00e+00    0.00e+00
BetaAC:   2.50e+02    2.50e+02    0.00e+00    2.50e+02
Cbx:      0.00e+00    0.00e+00    0.00e+00    0.00e+00
Ft:       0.00e+00    0.00e+00    0.00e+00    0.00e+00



Date: Sun Feb 11 16:55:55 2024
Total elapsed time: 1.449 seconds.

tnom = 27
temp = 22
method = trap
totiter = 1381
traniter = 0
tranpoints = 0
accept = 0
rejected = 0
matrix size = 60
fillins = 246
solver = Normal
Avg thread counts: 1.7/0.0/12.0/1.7
Matrix Compiler1: 22.47 KB object code size
Matrix Compiler2: 8.95 KB object code size  0.7/0.9/[0.4]

