Circuit: * C:\Users\BilgeKaan\Desktop\Bilge Kaan\2024 Spring\EE 313\Lab\Lab1\Lab1.asc

WARNING: Less than two connections to node nc_02.  This node is used by q:u1:1.
WARNING: Less than two connections to node nc_01.  This node is used by q:u1:2.
Direct Newton iteration for .op point succeeded.
Semiconductor Device Operating Points:
                        --- Diodes ---
Name:    d:u2:c      d:u2:e      d:u2:lp     d:u2:ln     d:u2:p
Model:    u2:dx       u2:dx       u2:dx       u2:dx       u2:dx
Id:     -1.28e-11    7.67e-07   -4.00e-11   -4.00e-11   -1.50e-11
Vd:     -1.28e+01    5.46e-01   -4.00e+01   -4.00e+01   -1.50e+01
Req:     1.00e+12    3.32e+04    1.00e+12    1.00e+12    1.00e+12
CAP:     0.00e+00    0.00e+00    0.00e+00    0.00e+00    0.00e+00

Name:      d1          d2        d:u1:c      d:u1:e      d:u1:lp
Model:   1n4148      1n4148       u1:dx       u1:dx       u1:dx
Id:      1.44e-03    1.44e-03   -1.29e-11    1.11e-06   -4.00e-11
Vd:      6.11e-01    6.19e-01   -1.29e+01    5.55e-01   -4.00e+01
Req:     3.10e+01    3.06e+01    1.00e+12    2.30e+04    1.00e+12
CAP:     6.51e-10    6.60e-10    0.00e+00    0.00e+00    0.00e+00

Name:    d:u1:ln     d:u1:p
Model:    u1:dx       u1:dx
Id:     -4.00e-11   -1.50e-11
Vd:     -4.00e+01   -1.50e+01
Req:     1.00e+12    1.00e+12
CAP:     0.00e+00    0.00e+00

                        --- Bipolar Transistors ---
Name:     q:u2:1      q:u2:2      q:u1:1      q:u1:2
Model:     u2:qx       u2:qx       u1:qx       u1:qx
Ib:      -1.86e-08   -2.27e-08   -5.34e-23   -5.34e-23
Ic:      -4.65e-06   -5.67e-06   -5.13e-08   -5.13e-08
Vbe:     -5.92e-01   -5.97e-01   -4.77e-01   -4.77e-01
Vbc:      5.81e-01    5.65e-01    2.05e+02    2.05e+02
Vce:     -1.17e+00   -1.16e+00   -2.05e+02   -2.05e+02
BetaDC:   2.50e+02    2.50e+02    9.62e+14    9.62e+14
Gm:       1.83e-04    2.23e-04    2.01e-06    2.01e-06
Rpi:      1.37e+06    1.12e+06    1.24e+08    1.24e+08
Rx:       0.00e+00    0.00e+00    0.00e+00    0.00e+00
Ro:       5.74e+23    3.06e+23    0.00e+00    0.00e+00
Cbe:      0.00e+00    0.00e+00    0.00e+00    0.00e+00
Cbc:      0.00e+00    0.00e+00    0.00e+00    0.00e+00
Cjs:      0.00e+00    0.00e+00    0.00e+00    0.00e+00
BetaAC:   2.50e+02    2.50e+02    2.50e+02    2.50e+02
Cbx:      0.00e+00    0.00e+00    0.00e+00    0.00e+00
Ft:       0.00e+00    0.00e+00    0.00e+00    0.00e+00



Date: Thu Feb  8 14:54:25 2024
Total elapsed time: 0.767 seconds.

tnom = 27
temp = 22
method = trap
totiter = 20
traniter = 0
tranpoints = 0
accept = 0
rejected = 0
matrix size = 58
fillins = 87
solver = Normal
Avg thread counts: 12.0/0.0/12.0/12.0
Matrix Compiler1: 7.79 KB object code size
Matrix Compiler2: 6.11 KB object code size
